* /home/drako/applications/esim-2.1/library/subcircuitlibrary/xor_gate/xor_gate.cir
Transient Analysis  Mon Jun 28 21:26:33  2021
--------------------------------------------------------------------------------
Index   time                            a               a_bar           
--------------------------------------------------------------------------------
0	0.000000e+00	0.000000e+00	0.000000e+00	3.300000e+00	
1	1.000000e-09	0.000000e+00	1.800000e-02	3.300189e+00	
2	2.000000e-09	0.000000e+00	3.600000e-02	3.300196e+00	
3	4.000000e-09	0.000000e+00	7.200000e-02	3.300198e+00	
4	8.000000e-09	0.000000e+00	1.440000e-01	3.300202e+00	
5	1.600000e-08	0.000000e+00	2.880000e-01	3.300214e+00	
6	3.200000e-08	0.000000e+00	5.760000e-01	3.298858e+00	
7	5.085288e-08	0.000000e+00	9.153519e-01	3.159849e+00	
8	6.848989e-08	0.000000e+00	1.232818e+00	1.963894e+00	
9	8.339639e-08	0.000000e+00	1.501135e+00	1.526143e-01	
10	9.392399e-08	0.000000e+00	1.690632e+00	7.275261e-02	
11	1.000000e-07	0.000000e+00	1.800000e+00	5.200637e-02	
12	1.010724e-07	0.000000e+00	1.800000e+00	4.976468e-02	
13	1.032171e-07	0.000000e+00	1.800000e+00	4.952875e-02	
14	1.075065e-07	0.000000e+00	1.800000e+00	4.973429e-02	
15	1.138771e-07	0.000000e+00	1.800000e+00	4.954350e-02	
16	1.266181e-07	0.000000e+00	1.800000e+00	4.972544e-02	
17	1.521002e-07	0.000000e+00	1.800000e+00	4.954768e-02	
18	2.030643e-07	0.000000e+00	1.800000e+00	4.972350e-02	
19	3.030643e-07	0.000000e+00	1.800000e+00	4.954872e-02	
20	4.030643e-07	0.000000e+00	1.800000e+00	4.972294e-02	
21	5.030643e-07	0.000000e+00	1.800000e+00	4.954950e-02	
22	6.030643e-07	0.000000e+00	1.800000e+00	4.972227e-02	
23	7.030643e-07	0.000000e+00	1.800000e+00	4.955017e-02	
24	8.030643e-07	0.000000e+00	1.800000e+00	4.972161e-02	
25	9.030643e-07	0.000000e+00	1.800000e+00	4.955083e-02	
26	1.003064e-06	0.000000e+00	1.800000e+00	4.972095e-02	
27	1.103064e-06	0.000000e+00	1.800000e+00	4.955149e-02	
28	1.203064e-06	0.000000e+00	1.800000e+00	4.972030e-02	
29	1.303064e-06	0.000000e+00	1.800000e+00	4.955214e-02	
30	1.403064e-06	0.000000e+00	1.800000e+00	4.971965e-02	
31	1.503064e-06	0.000000e+00	1.800000e+00	4.955279e-02	
32	1.603064e-06	0.000000e+00	1.800000e+00	4.971901e-02	
33	1.703064e-06	0.000000e+00	1.800000e+00	4.955344e-02	
34	1.803064e-06	0.000000e+00	1.800000e+00	4.971837e-02	
35	1.903064e-06	0.000000e+00	1.800000e+00	4.955407e-02	
36	2.003064e-06	0.000000e+00	1.800000e+00	4.971773e-02	
37	2.103064e-06	0.000000e+00	1.800000e+00	4.955471e-02	
38	2.203064e-06	0.000000e+00	1.800000e+00	4.971710e-02	
39	2.303064e-06	0.000000e+00	1.800000e+00	4.955534e-02	
40	2.403064e-06	0.000000e+00	1.800000e+00	4.971648e-02	
41	2.503064e-06	0.000000e+00	1.800000e+00	4.955596e-02	
42	2.603064e-06	0.000000e+00	1.800000e+00	4.971586e-02	
43	2.703064e-06	0.000000e+00	1.800000e+00	4.955658e-02	
44	2.803064e-06	0.000000e+00	1.800000e+00	4.971525e-02	
45	2.903064e-06	0.000000e+00	1.800000e+00	4.955719e-02	
46	3.003064e-06	0.000000e+00	1.800000e+00	4.971464e-02	
47	3.103064e-06	0.000000e+00	1.800000e+00	4.955780e-02	
48	3.203064e-06	0.000000e+00	1.800000e+00	4.971403e-02	
49	3.303064e-06	0.000000e+00	1.800000e+00	4.955841e-02	
50	3.403064e-06	0.000000e+00	1.800000e+00	4.971343e-02	
51	3.503064e-06	0.000000e+00	1.800000e+00	4.955901e-02	
52	3.603064e-06	0.000000e+00	1.800000e+00	4.971284e-02	
53	3.703064e-06	0.000000e+00	1.800000e+00	4.955960e-02	
54	3.803064e-06	0.000000e+00	1.800000e+00	4.971224e-02	

Index   time                            a               a_bar           
--------------------------------------------------------------------------------
55	3.903064e-06	0.000000e+00	1.800000e+00	4.956019e-02	
56	4.003064e-06	0.000000e+00	1.800000e+00	4.971166e-02	
57	4.103064e-06	0.000000e+00	1.800000e+00	4.956078e-02	
58	4.203064e-06	0.000000e+00	1.800000e+00	4.971107e-02	
59	4.303064e-06	0.000000e+00	1.800000e+00	4.956136e-02	
60	4.403064e-06	0.000000e+00	1.800000e+00	4.971050e-02	
61	4.503064e-06	0.000000e+00	1.800000e+00	4.956194e-02	
62	4.603064e-06	0.000000e+00	1.800000e+00	4.970992e-02	
63	4.703064e-06	0.000000e+00	1.800000e+00	4.956251e-02	
64	4.803064e-06	0.000000e+00	1.800000e+00	4.970935e-02	
65	4.903064e-06	0.000000e+00	1.800000e+00	4.956308e-02	
66	5.003064e-06	0.000000e+00	1.800000e+00	4.970879e-02	
67	5.100000e-06	0.000000e+00	1.800000e+00	4.956366e-02	
68	5.110000e-06	0.000000e+00	1.620000e+00	9.652583e-02	
69	5.130000e-06	0.000000e+00	1.260000e+00	7.288920e-01	
70	5.148659e-06	0.000000e+00	9.241323e-01	3.137604e+00	
71	5.160921e-06	0.000000e+00	7.034142e-01	3.292575e+00	
72	5.173058e-06	0.000000e+00	4.849587e-01	3.291859e+00	
73	5.188117e-06	0.000000e+00	2.138929e-01	3.306885e+00	
74	5.200000e-06	0.000000e+00	0.000000e+00	3.293069e+00	
75	5.203012e-06	0.000000e+00	0.000000e+00	3.299884e+00	
76	5.209036e-06	0.000000e+00	0.000000e+00	3.300113e+00	
77	5.221083e-06	0.000000e+00	0.000000e+00	3.299889e+00	
78	5.244422e-06	0.000000e+00	0.000000e+00	3.300110e+00	
79	5.291101e-06	0.000000e+00	0.000000e+00	3.299891e+00	
80	5.384458e-06	0.000000e+00	0.000000e+00	3.300109e+00	
81	5.484458e-06	0.000000e+00	0.000000e+00	3.299891e+00	
82	5.584458e-06	0.000000e+00	0.000000e+00	3.300109e+00	
83	5.684458e-06	0.000000e+00	0.000000e+00	3.299892e+00	
84	5.784458e-06	0.000000e+00	0.000000e+00	3.300108e+00	
85	5.884458e-06	0.000000e+00	0.000000e+00	3.299892e+00	
86	5.984458e-06	0.000000e+00	0.000000e+00	3.300108e+00	
87	6.084458e-06	0.000000e+00	0.000000e+00	3.299892e+00	
88	6.184458e-06	0.000000e+00	0.000000e+00	3.300107e+00	
89	6.284458e-06	0.000000e+00	0.000000e+00	3.299893e+00	
90	6.384458e-06	0.000000e+00	0.000000e+00	3.300107e+00	
91	6.484458e-06	0.000000e+00	0.000000e+00	3.299893e+00	
92	6.584458e-06	0.000000e+00	0.000000e+00	3.300107e+00	
93	6.684458e-06	0.000000e+00	0.000000e+00	3.299894e+00	
94	6.784458e-06	0.000000e+00	0.000000e+00	3.300106e+00	
95	6.884458e-06	0.000000e+00	0.000000e+00	3.299894e+00	
96	6.984458e-06	0.000000e+00	0.000000e+00	3.300106e+00	
97	7.084458e-06	0.000000e+00	0.000000e+00	3.299895e+00	
98	7.184458e-06	0.000000e+00	0.000000e+00	3.300105e+00	
99	7.284458e-06	0.000000e+00	0.000000e+00	3.299895e+00	
100	7.384458e-06	0.000000e+00	0.000000e+00	3.300105e+00	
101	7.484458e-06	0.000000e+00	0.000000e+00	3.299895e+00	
102	7.584458e-06	0.000000e+00	0.000000e+00	3.300104e+00	
103	7.684458e-06	0.000000e+00	0.000000e+00	3.299896e+00	
104	7.784458e-06	0.000000e+00	0.000000e+00	3.300104e+00	
105	7.884458e-06	0.000000e+00	0.000000e+00	3.299896e+00	
106	7.984458e-06	0.000000e+00	0.000000e+00	3.300104e+00	
107	8.084458e-06	0.000000e+00	0.000000e+00	3.299897e+00	
108	8.184458e-06	0.000000e+00	0.000000e+00	3.300103e+00	
109	8.284458e-06	0.000000e+00	0.000000e+00	3.299897e+00	
110	8.384458e-06	0.000000e+00	0.000000e+00	3.300103e+00	
111	8.484458e-06	0.000000e+00	0.000000e+00	3.299897e+00	
112	8.584458e-06	0.000000e+00	0.000000e+00	3.300102e+00	

Index   time                            a               a_bar           
--------------------------------------------------------------------------------
113	8.684458e-06	0.000000e+00	0.000000e+00	3.299898e+00	
114	8.784458e-06	0.000000e+00	0.000000e+00	3.300102e+00	
115	8.884458e-06	0.000000e+00	0.000000e+00	3.299898e+00	
116	8.984458e-06	0.000000e+00	0.000000e+00	3.300102e+00	
117	9.084458e-06	0.000000e+00	0.000000e+00	3.299899e+00	
118	9.184458e-06	0.000000e+00	0.000000e+00	3.300101e+00	
119	9.284458e-06	0.000000e+00	0.000000e+00	3.299899e+00	
120	9.384458e-06	0.000000e+00	0.000000e+00	3.300101e+00	
121	9.484458e-06	0.000000e+00	0.000000e+00	3.299900e+00	
122	9.584458e-06	0.000000e+00	0.000000e+00	3.300100e+00	
123	9.684458e-06	0.000000e+00	0.000000e+00	3.299900e+00	
124	9.784458e-06	0.000000e+00	0.000000e+00	3.300100e+00	
125	9.884458e-06	0.000000e+00	0.000000e+00	3.299900e+00	
126	9.984458e-06	0.000000e+00	0.000000e+00	3.300099e+00	
127	1.000000e-05	0.000000e+00	0.000000e+00	3.299902e+00	
128	1.000552e-05	0.000000e+00	9.933845e-02	3.300199e+00	
129	1.001656e-05	0.000000e+00	2.980154e-01	3.300219e+00	
130	1.003863e-05	0.000000e+00	6.953692e-01	3.286760e+00	
131	1.006582e-05	0.000000e+00	1.184741e+00	2.583061e+00	
132	1.009444e-05	0.000000e+00	1.699916e+00	7.529381e-02	
133	1.010000e-05	0.000000e+00	1.800000e+00	4.775035e-02	
134	1.010265e-05	0.000000e+00	1.800000e+00	4.959778e-02	
135	1.010796e-05	0.000000e+00	1.800000e+00	4.965830e-02	
136	1.011844e-05	0.000000e+00	1.800000e+00	4.960049e-02	
137	1.012932e-05	0.000000e+00	1.800000e+00	4.965707e-02	
138	1.014213e-05	0.000000e+00	1.800000e+00	4.947368e-02	
139	1.015046e-05	0.000000e+00	1.800000e+00	4.978968e-02	
140	1.015828e-05	0.000000e+00	1.800000e+00	4.949617e-02	
141	1.016861e-05	0.000000e+00	1.800000e+00	4.975936e-02	
142	1.018633e-05	0.000000e+00	1.800000e+00	4.955244e-02	
143	1.020000e-05	0.000000e+00	1.800000e+00	4.970075e-02	
144	1.020173e-05	0.000000e+00	1.800000e+00	4.963987e-02	
145	1.020518e-05	0.000000e+00	1.800000e+00	4.963263e-02	
146	1.021209e-05	0.000000e+00	1.800000e+00	4.963952e-02	
147	1.022452e-05	0.000000e+00	1.800000e+00	4.963280e-02	
148	1.024938e-05	0.000000e+00	1.800000e+00	4.963943e-02	
149	1.029910e-05	0.000000e+00	1.800000e+00	4.963285e-02	
150	1.039855e-05	0.000000e+00	1.800000e+00	4.963941e-02	
151	1.049855e-05	0.000000e+00	1.800000e+00	4.963286e-02	
152	1.059855e-05	0.000000e+00	1.800000e+00	4.963940e-02	
153	1.069855e-05	0.000000e+00	1.800000e+00	4.963288e-02	
154	1.079855e-05	0.000000e+00	1.800000e+00	4.963938e-02	
155	1.089855e-05	0.000000e+00	1.800000e+00	4.963289e-02	
156	1.099855e-05	0.000000e+00	1.800000e+00	4.963937e-02	
157	1.109855e-05	0.000000e+00	1.800000e+00	4.963291e-02	
158	1.119855e-05	0.000000e+00	1.800000e+00	4.963935e-02	
159	1.129855e-05	0.000000e+00	1.800000e+00	4.963292e-02	
160	1.139855e-05	0.000000e+00	1.800000e+00	4.963934e-02	
161	1.149855e-05	0.000000e+00	1.800000e+00	4.963293e-02	
162	1.159855e-05	0.000000e+00	1.800000e+00	4.963933e-02	
163	1.169855e-05	0.000000e+00	1.800000e+00	4.963295e-02	
164	1.179855e-05	0.000000e+00	1.800000e+00	4.963931e-02	
165	1.189855e-05	0.000000e+00	1.800000e+00	4.963296e-02	
166	1.199855e-05	0.000000e+00	1.800000e+00	4.963930e-02	
167	1.209855e-05	0.000000e+00	1.800000e+00	4.963298e-02	
168	1.219855e-05	0.000000e+00	1.800000e+00	4.963929e-02	
169	1.229855e-05	0.000000e+00	1.800000e+00	4.963299e-02	
170	1.239855e-05	0.000000e+00	1.800000e+00	4.963927e-02	

Index   time                            a               a_bar           
--------------------------------------------------------------------------------
171	1.249855e-05	0.000000e+00	1.800000e+00	4.963301e-02	
172	1.259855e-05	0.000000e+00	1.800000e+00	4.963926e-02	
173	1.269855e-05	0.000000e+00	1.800000e+00	4.963302e-02	
174	1.279855e-05	0.000000e+00	1.800000e+00	4.963924e-02	
175	1.289855e-05	0.000000e+00	1.800000e+00	4.963303e-02	
176	1.299855e-05	0.000000e+00	1.800000e+00	4.963923e-02	
177	1.309855e-05	0.000000e+00	1.800000e+00	4.963305e-02	
178	1.319855e-05	0.000000e+00	1.800000e+00	4.963922e-02	
179	1.329855e-05	0.000000e+00	1.800000e+00	4.963306e-02	
180	1.339855e-05	0.000000e+00	1.800000e+00	4.963920e-02	
181	1.349855e-05	0.000000e+00	1.800000e+00	4.963307e-02	
182	1.359855e-05	0.000000e+00	1.800000e+00	4.963919e-02	
183	1.369855e-05	0.000000e+00	1.800000e+00	4.963309e-02	
184	1.379855e-05	0.000000e+00	1.800000e+00	4.963918e-02	
185	1.389855e-05	0.000000e+00	1.800000e+00	4.963310e-02	
186	1.399855e-05	0.000000e+00	1.800000e+00	4.963916e-02	
187	1.409855e-05	0.000000e+00	1.800000e+00	4.963312e-02	
188	1.419855e-05	0.000000e+00	1.800000e+00	4.963915e-02	
189	1.429855e-05	0.000000e+00	1.800000e+00	4.963313e-02	
190	1.439855e-05	0.000000e+00	1.800000e+00	4.963914e-02	
191	1.449855e-05	0.000000e+00	1.800000e+00	4.963314e-02	
192	1.459855e-05	0.000000e+00	1.800000e+00	4.963912e-02	
193	1.469855e-05	0.000000e+00	1.800000e+00	4.963316e-02	
194	1.479855e-05	0.000000e+00	1.800000e+00	4.963911e-02	
195	1.489855e-05	0.000000e+00	1.800000e+00	4.963317e-02	
196	1.499855e-05	0.000000e+00	1.800000e+00	4.963910e-02	
197	1.509855e-05	0.000000e+00	1.800000e+00	4.963318e-02	
198	1.510000e-05	0.000000e+00	1.800000e+00	4.963868e-02	
199	1.510250e-05	0.000000e+00	1.754991e+00	5.887697e-02	
200	1.510750e-05	0.000000e+00	1.664974e+00	8.209953e-02	
201	1.511596e-05	0.000000e+00	1.512745e+00	1.417536e-01	
202	1.512747e-05	0.000000e+00	1.305455e+00	3.600513e-01	
203	1.514046e-05	0.000000e+00	1.071755e+00	2.904570e+00	
204	1.514907e-05	0.000000e+00	9.166759e-01	3.173181e+00	
205	1.515704e-05	0.000000e+00	7.733599e-01	3.245023e+00	
206	1.516775e-05	0.000000e+00	5.804690e-01	3.311368e+00	
207	1.518040e-05	0.000000e+00	3.527810e-01	3.287443e+00	
208	1.519204e-05	0.000000e+00	1.432988e-01	3.311374e+00	
209	1.520000e-05	0.000000e+00	0.000000e+00	3.288685e+00	
210	1.520125e-05	0.000000e+00	0.000000e+00	3.299640e+00	
211	1.520376e-05	0.000000e+00	0.000000e+00	3.300339e+00	
212	1.520876e-05	0.000000e+00	0.000000e+00	3.299672e+00	
213	1.521878e-05	0.000000e+00	0.000000e+00	3.300323e+00	
214	1.523880e-05	0.000000e+00	0.000000e+00	3.299679e+00	
215	1.527886e-05	0.000000e+00	0.000000e+00	3.300320e+00	
216	1.535897e-05	0.000000e+00	0.000000e+00	3.299681e+00	
217	1.545897e-05	0.000000e+00	0.000000e+00	3.300319e+00	
218	1.555897e-05	0.000000e+00	0.000000e+00	3.299682e+00	
219	1.565897e-05	0.000000e+00	0.000000e+00	3.300318e+00	
220	1.575897e-05	0.000000e+00	0.000000e+00	3.299683e+00	
221	1.585897e-05	0.000000e+00	0.000000e+00	3.300317e+00	
222	1.595897e-05	0.000000e+00	0.000000e+00	3.299684e+00	
223	1.605897e-05	0.000000e+00	0.000000e+00	3.300316e+00	
224	1.615897e-05	0.000000e+00	0.000000e+00	3.299685e+00	
225	1.625897e-05	0.000000e+00	0.000000e+00	3.300315e+00	
226	1.635897e-05	0.000000e+00	0.000000e+00	3.299686e+00	
227	1.645897e-05	0.000000e+00	0.000000e+00	3.300314e+00	
228	1.655897e-05	0.000000e+00	0.000000e+00	3.299687e+00	

Index   time                            a               a_bar           
--------------------------------------------------------------------------------
229	1.665897e-05	0.000000e+00	0.000000e+00	3.300313e+00	
230	1.675897e-05	0.000000e+00	0.000000e+00	3.299688e+00	
231	1.685897e-05	0.000000e+00	0.000000e+00	3.300312e+00	
232	1.695897e-05	0.000000e+00	0.000000e+00	3.299689e+00	
233	1.705897e-05	0.000000e+00	0.000000e+00	3.300311e+00	
234	1.715897e-05	0.000000e+00	0.000000e+00	3.299690e+00	
235	1.725897e-05	0.000000e+00	0.000000e+00	3.300310e+00	
236	1.735897e-05	0.000000e+00	0.000000e+00	3.299691e+00	
237	1.745897e-05	0.000000e+00	0.000000e+00	3.300309e+00	
238	1.755897e-05	0.000000e+00	0.000000e+00	3.299692e+00	
239	1.765897e-05	0.000000e+00	0.000000e+00	3.300308e+00	
240	1.775897e-05	0.000000e+00	0.000000e+00	3.299693e+00	
241	1.785897e-05	0.000000e+00	0.000000e+00	3.300307e+00	
242	1.795897e-05	0.000000e+00	0.000000e+00	3.299694e+00	
243	1.805897e-05	0.000000e+00	0.000000e+00	3.300306e+00	
244	1.815897e-05	0.000000e+00	0.000000e+00	3.299695e+00	
245	1.825897e-05	0.000000e+00	0.000000e+00	3.300305e+00	
246	1.835897e-05	0.000000e+00	0.000000e+00	3.299696e+00	
247	1.845897e-05	0.000000e+00	0.000000e+00	3.300304e+00	
248	1.855897e-05	0.000000e+00	0.000000e+00	3.299697e+00	
249	1.865897e-05	0.000000e+00	0.000000e+00	3.300303e+00	
250	1.875897e-05	0.000000e+00	0.000000e+00	3.299698e+00	
251	1.885897e-05	0.000000e+00	0.000000e+00	3.300302e+00	
252	1.895897e-05	0.000000e+00	0.000000e+00	3.299698e+00	
253	1.905897e-05	0.000000e+00	0.000000e+00	3.300301e+00	
254	1.915897e-05	0.000000e+00	0.000000e+00	3.299699e+00	
255	1.925897e-05	0.000000e+00	0.000000e+00	3.300300e+00	
256	1.935897e-05	0.000000e+00	0.000000e+00	3.299700e+00	
257	1.945897e-05	0.000000e+00	0.000000e+00	3.300300e+00	
258	1.955897e-05	0.000000e+00	0.000000e+00	3.299701e+00	
259	1.965897e-05	0.000000e+00	0.000000e+00	3.300299e+00	
260	1.975897e-05	0.000000e+00	0.000000e+00	3.299702e+00	
261	1.985897e-05	0.000000e+00	0.000000e+00	3.300298e+00	
262	1.995897e-05	0.000000e+00	0.000000e+00	3.299703e+00	
263	2.000000e-05	0.000000e+00	0.000000e+00	3.300296e+00	
264	2.001000e-05	0.000000e+00	1.800000e-01	3.300203e+00	
265	2.003000e-05	0.000000e+00	5.400000e-01	3.299613e+00	
266	2.005107e-05	0.000000e+00	9.192851e-01	3.155837e+00	
267	2.007092e-05	0.000000e+00	1.276480e+00	5.687591e-01	
268	2.008558e-05	0.000000e+00	1.540428e+00	1.241346e-01	
269	2.009922e-05	0.000000e+00	1.786033e+00	5.608089e-02	
270	2.010000e-05	0.000000e+00	1.800000e+00	4.688727e-02	
271	2.010141e-05	0.000000e+00	1.800000e+00	4.958627e-02	
272	2.010424e-05	0.000000e+00	1.800000e+00	4.968272e-02	
273	2.010923e-05	0.000000e+00	1.800000e+00	4.959113e-02	
274	2.011922e-05	0.000000e+00	1.800000e+00	4.968034e-02	
275	2.013919e-05	0.000000e+00	1.800000e+00	4.959219e-02	
276	2.017912e-05	0.000000e+00	1.800000e+00	4.967980e-02	
277	2.025899e-05	0.000000e+00	1.800000e+00	4.959247e-02	
278	2.035899e-05	0.000000e+00	1.800000e+00	4.967966e-02	
279	2.045899e-05	0.000000e+00	1.800000e+00	4.959264e-02	
280	2.055899e-05	0.000000e+00	1.800000e+00	4.967952e-02	
281	2.065899e-05	0.000000e+00	1.800000e+00	4.959278e-02	
282	2.075899e-05	0.000000e+00	1.800000e+00	4.967938e-02	
283	2.085899e-05	0.000000e+00	1.800000e+00	4.959293e-02	
284	2.095899e-05	0.000000e+00	1.800000e+00	4.967924e-02	
285	2.105899e-05	0.000000e+00	1.800000e+00	4.959307e-02	
286	2.115899e-05	0.000000e+00	1.800000e+00	4.967910e-02	

Index   time                            a               a_bar           
--------------------------------------------------------------------------------
287	2.125899e-05	0.000000e+00	1.800000e+00	4.959321e-02	
288	2.135899e-05	0.000000e+00	1.800000e+00	4.967896e-02	
289	2.145899e-05	0.000000e+00	1.800000e+00	4.959335e-02	
290	2.155899e-05	0.000000e+00	1.800000e+00	4.967882e-02	
291	2.165899e-05	0.000000e+00	1.800000e+00	4.959349e-02	
292	2.175899e-05	0.000000e+00	1.800000e+00	4.967868e-02	
293	2.185899e-05	0.000000e+00	1.800000e+00	4.959363e-02	
294	2.195899e-05	0.000000e+00	1.800000e+00	4.967854e-02	
295	2.205899e-05	0.000000e+00	1.800000e+00	4.959377e-02	
296	2.215899e-05	0.000000e+00	1.800000e+00	4.967840e-02	
297	2.225899e-05	0.000000e+00	1.800000e+00	4.959390e-02	
298	2.235899e-05	0.000000e+00	1.800000e+00	4.967827e-02	
299	2.245899e-05	0.000000e+00	1.800000e+00	4.959404e-02	
300	2.255899e-05	0.000000e+00	1.800000e+00	4.967813e-02	
301	2.265899e-05	0.000000e+00	1.800000e+00	4.959417e-02	
302	2.275899e-05	0.000000e+00	1.800000e+00	4.967800e-02	
303	2.285899e-05	0.000000e+00	1.800000e+00	4.959431e-02	
304	2.295899e-05	0.000000e+00	1.800000e+00	4.967786e-02	
305	2.305899e-05	0.000000e+00	1.800000e+00	4.959444e-02	
306	2.315899e-05	0.000000e+00	1.800000e+00	4.967773e-02	
307	2.325899e-05	0.000000e+00	1.800000e+00	4.959458e-02	
308	2.335899e-05	0.000000e+00	1.800000e+00	4.967760e-02	
309	2.345899e-05	0.000000e+00	1.800000e+00	4.959471e-02	
310	2.355899e-05	0.000000e+00	1.800000e+00	4.967747e-02	
311	2.365899e-05	0.000000e+00	1.800000e+00	4.959484e-02	
312	2.375899e-05	0.000000e+00	1.800000e+00	4.967733e-02	
313	2.385899e-05	0.000000e+00	1.800000e+00	4.959497e-02	
314	2.395899e-05	0.000000e+00	1.800000e+00	4.967720e-02	
315	2.405899e-05	0.000000e+00	1.800000e+00	4.959510e-02	
316	2.415899e-05	0.000000e+00	1.800000e+00	4.967707e-02	
317	2.425899e-05	0.000000e+00	1.800000e+00	4.959523e-02	
318	2.435899e-05	0.000000e+00	1.800000e+00	4.967694e-02	
319	2.445899e-05	0.000000e+00	1.800000e+00	4.959536e-02	
320	2.455899e-05	0.000000e+00	1.800000e+00	4.967682e-02	
321	2.465899e-05	0.000000e+00	1.800000e+00	4.959549e-02	
322	2.475899e-05	0.000000e+00	1.800000e+00	4.967669e-02	
323	2.485899e-05	0.000000e+00	1.800000e+00	4.959562e-02	
324	2.495899e-05	0.000000e+00	1.800000e+00	4.967656e-02	
325	2.505899e-05	0.000000e+00	1.800000e+00	4.959574e-02	
326	2.510000e-05	0.000000e+00	1.800000e+00	4.967635e-02	
327	2.510835e-05	0.000000e+00	1.649769e+00	8.676559e-02	
328	2.512504e-05	0.000000e+00	1.349307e+00	2.775136e-01	
329	2.514070e-05	0.000000e+00	1.067352e+00	2.916304e+00	
330	2.515172e-05	0.000000e+00	8.690313e-01	3.214139e+00	
331	2.516206e-05	0.000000e+00	6.829323e-01	3.275636e+00	
